 time            v(vin)          v(vmem)        
 1.00000000e-06  8.86848650e-01  2.59758182e-03 
 1.00320713e-06  8.86881188e-01  2.59538369e-03 
 1.00962139e-06  8.86946265e-01  2.59140235e-03 
 1.02244990e-06  8.87076419e-01  2.58548224e-03 
 1.04086394e-06  8.87263241e-01  2.57973368e-03 
 1.07769202e-06  8.87636886e-01  2.57249398e-03 
 1.12704290e-06  8.88137583e-01  2.56674247e-03 
 1.19625853e-06  8.88839820e-01  2.56164676e-03 
 1.30167273e-06  8.89909316e-01  2.55655338e-03 
 1.51250112e-06  8.92048307e-01  2.55003849e-03 
 1.71184472e-06  8.94070777e-01  2.54599048e-03 
 2.01933255e-06  8.97190441e-01  2.54142384e-03 
 2.37382606e-06  9.00787008e-01  2.53756216e-03 
 2.94413246e-06  9.06573137e-01  2.53298310e-03 
 3.58588083e-06  9.13084092e-01  2.52921978e-03 
 4.56358314e-06  9.23003517e-01  2.52498949e-03 
 5.68525508e-06  9.34383608e-01  2.52144301e-03 
 7.35853481e-06  9.51360119e-01  2.51757544e-03 
 9.29129447e-06  9.70969222e-01  2.51436849e-03 
 1.20982975e-05  9.99448092e-01  2.51105579e-03 
 1.53685960e-05  1.03262740e+00  2.50837744e-03 
 1.99211854e-05  1.07881637e+00  2.50586306e-03 
 2.52967320e-05  1.10098090e+00  2.50399338e-03 
 3.27860898e-05  1.13118997e+00  2.50255241e-03 
 4.13266129e-05  1.15144599e+00  2.50192280e-03 
 5.32118375e-05  1.07222978e+00  2.50210817e-03 
 6.65024697e-05  1.08837842e+00  2.50323296e-03 
 7.99904315e-05  1.21572366e+00  2.50501393e-03 
 9.62504949e-05  1.18118095e+00  2.50769892e-03 
 1.00000000e-04  1.17319000e+00  2.50838663e-03 
 1.01650151e-04  1.15516004e+00  2.50869518e-03 
 1.04950452e-04  1.11910013e+00  2.50932030e-03 
 1.11551054e-04  1.04698030e+00  2.51060764e-03 
 1.24752259e-04  9.79052878e-01  2.51330325e-03 
 1.47006852e-04  1.06637482e+00  2.51810956e-03 
 1.75587818e-04  1.00046042e+00  2.52458861e-03 
 2.03123646e-04  1.09957892e+00  2.53101740e-03 
 2.46400876e-04  1.07914921e+00  2.54127902e-03 
 2.95994385e-04  1.15704946e+00  2.55313300e-03 
 3.47681585e-04  9.32427966e-01  2.56552194e-03 
 4.39700408e-04  1.09214863e+00  2.58759406e-03 
 5.22921107e-04  1.17989441e+00  2.60754846e-03 
 6.22921107e-04  1.12224603e+00  2.63152295e-03 
 7.22921107e-04  1.10775376e+00  2.65550325e-03 
 8.22921107e-04  9.51985770e-01  2.67947705e-03 
 9.22921107e-04  1.03766917e+00  2.70345337e-03 
 1.02292111e-03  9.84607061e-01  2.72741852e-03 
 1.12292111e-03  1.09277729e+00  2.75138307e-03 
 1.22292111e-03  1.02981130e+00  2.77535001e-03 
 1.32292111e-03  1.07516674e+00  2.79931679e-03 
 1.42292111e-03  1.06629425e+00  2.82327692e-03 
 1.52292111e-03  9.06732391e-01  2.84723017e-03 
 1.61198548e-03  1.05665260e+00  2.86857101e-03 
 1.70540613e-03  9.23453626e-01  2.89094859e-03 
 1.80540613e-03  1.01375448e+00  2.91489795e-03 
 1.90540613e-03  8.92884413e-01  2.93885069e-03 
 2.00540613e-03  9.64126897e-01  2.96279930e-03 
 2.10540613e-03  1.15027088e+00  2.98674446e-03 
 2.19620772e-03  1.06529268e+00  3.00848392e-03 
 2.25783728e-03  1.05134706e+00  3.02323784e-03 
 2.31351974e-03  1.05584210e+00  3.03656624e-03 
 2.36664610e-03  9.94863018e-01  3.04927863e-03 
 2.42046992e-03  1.02662866e+00  3.06215723e-03 
 2.49001553e-03  1.12403646e+00  3.07880851e-03 
 2.55885061e-03  9.34570987e-01  3.09528518e-03 
 2.63040957e-03  9.99738903e-01  3.11240416e-03 
 2.68465436e-03  9.85722453e-01  3.12537949e-03 
 2.76304148e-03  8.68516882e-01  3.14413575e-03 
 2.79137351e-03  9.80735855e-01  3.15091586e-03 
 2.81010355e-03  9.82768111e-01  3.15539510e-03 
 2.83336169e-03  1.09290005e+00  3.16095858e-03 
 2.84497441e-03  1.10877169e+00  3.16373974e-03 
 2.85919898e-03  1.07157085e+00  3.16714382e-03 
 2.87917350e-03  1.10258960e+00  3.17191778e-03 
 2.90376688e-03  1.03478408e+00  3.17780323e-03 
 2.92696047e-03  1.08887541e+00  3.18335674e-03 
 2.97334766e-03  1.08313162e+00  3.19444757e-03 
 3.01665422e-03  1.04250765e+00  3.20480215e-03 
 3.07536684e-03  1.01956387e+00  3.21885761e-03 
 3.13369316e-03  8.76709300e-01  3.23280129e-03 
 3.19470580e-03  9.12538107e-01  3.24738906e-03 
 3.26417734e-03  1.03724850e+00  3.26401194e-03 
 3.32896138e-03  9.95820202e-01  3.27950433e-03 
 3.38052866e-03  9.40237214e-01  3.29183625e-03 
 3.43313512e-03  1.01365526e+00  3.30440765e-03 
 3.48792062e-03  9.69804578e-01  3.31751089e-03 
 3.54910916e-03  9.31162199e-01  3.33214567e-03 
 3.63963014e-03  9.33971076e-01  3.35377108e-03 
 3.71896264e-03  1.00330573e+00  3.37273626e-03 
 3.79779244e-03  8.35534020e-01  3.39158462e-03 
 3.87369786e-03  1.03964127e+00  3.40972677e-03 
 3.95105125e-03  9.51857445e-01  3.42821689e-03 
 4.01266413e-03  9.62798647e-01  3.44294333e-03 
 4.09345711e-03  8.93579952e-01  3.46225579e-03 
 4.17125668e-03  9.05356906e-01  3.48084648e-03 
 4.24812727e-03  9.05601790e-01  3.49920599e-03 
 4.34812727e-03  1.11913671e+00  3.52309586e-03 
 4.44079427e-03  1.00511786e+00  3.54523638e-03 
 4.47719655e-03  7.41631261e-01  3.55393314e-03 
 4.50757036e-03  1.03440154e+00  3.56118480e-03 
 4.52786162e-03  1.09450012e+00  3.56602926e-03 
 4.54720135e-03  9.43990400e-01  3.57064746e-03 
 4.56583524e-03  9.19530323e-01  3.57510086e-03 
 4.58499092e-03  8.43193600e-01  3.57967919e-03 
 4.60898397e-03  8.77379020e-01  3.58540677e-03 
 4.63376767e-03  9.67482473e-01  3.59132634e-03 
 4.65953142e-03  8.70948381e-01  3.59748405e-03 
 4.68475967e-03  9.82377715e-01  3.60350777e-03 
 4.72070287e-03  8.76729186e-01  3.61208691e-03 
 4.75364278e-03  8.96466803e-01  3.61995100e-03 
 4.79151450e-03  9.96753915e-01  3.62900049e-03 
 4.82595375e-03  9.87190233e-01  3.63722990e-03 
 4.86496444e-03  1.05857019e+00  3.64654176e-03 
 4.90363791e-03  1.01715338e+00  3.65577850e-03 
 4.92953265e-03  8.51103630e-01  3.66196376e-03 
 4.95465271e-03  8.58157455e-01  3.66795824e-03 
 4.97188620e-03  8.40216880e-01  3.67207052e-03 
 4.98331239e-03  8.38019571e-01  3.67321006e-03 
 4.98745776e-03  8.56709786e-01  3.14830914e-03 
 4.98936196e-03  8.65295286e-01  2.26859366e-03 
 4.99007925e-03  8.68529312e-01  2.51666822e-03 
 4.99082574e-03  8.71895003e-01  2.49026873e-03 
 4.99140965e-03  8.74527695e-01  2.47542404e-03 
 4.99202836e-03  8.77317280e-01  2.46353167e-03 
 4.99326579e-03  8.82896450e-01  2.44753021e-03 
 4.99574063e-03  8.94054790e-01  2.43594993e-03 
 4.99878097e-03  9.07762782e-01  2.44224224e-03 
 5.00142424e-03  9.26640049e-01  2.44826849e-03 
 5.00433870e-03  9.54022153e-01  2.45469259e-03 
 5.00675045e-03  9.76681127e-01  2.45988888e-03 
 5.00986878e-03  1.00597861e+00  2.46641455e-03 
 5.01610543e-03  1.06457357e+00  2.47888978e-03 
 5.02412719e-03  1.05890115e+00  2.49458511e-03 
 5.03354844e-03  9.62426579e-01  2.51175197e-03 
 5.05239095e-03  8.70281528e-01  2.54339180e-03 
 5.07384713e-03  8.39953612e-01  2.57432420e-03 
 5.09479961e-03  8.27335983e-01  2.59772119e-03 
 5.11265784e-03  8.77568311e-01  2.61200844e-03 
 5.13118889e-03  9.09709684e-01  2.62242554e-03 
 5.15469740e-03  8.93325356e-01  2.63186211e-03 
 5.17635851e-03  8.99469158e-01  2.63870406e-03 
 5.21968072e-03  9.38842586e-01  2.65093932e-03 
 5.26243565e-03  1.06062937e+00  2.66239706e-03 
 5.29518329e-03  9.06834452e-01  2.67113353e-03 
 5.32976895e-03  8.64063453e-01  2.68032679e-03 
 5.36446646e-03  8.78968581e-01  2.68956619e-03 
 5.39261040e-03  9.95569425e-01  2.69704460e-03 
 5.41929939e-03  9.89688617e-01  2.70415347e-03 
 5.45245805e-03  9.71595511e-01  2.71296666e-03 
 5.48954691e-03  8.64036264e-01  2.72284911e-03 
 5.52355500e-03  9.30285960e-01  2.73188708e-03 
 5.55905817e-03  9.20241714e-01  2.74134032e-03 
 5.60605512e-03  9.74148540e-01  2.75383593e-03 
 5.67103366e-03  1.05105370e+00  2.77114264e-03 
 5.73134406e-03  9.63338311e-01  2.78719284e-03 
 5.79248835e-03  8.99192105e-01  2.80348583e-03 
 5.85029850e-03  9.72512865e-01  2.81887997e-03 
 5.90416339e-03  1.07905337e+00  2.83323259e-03 
 5.95606620e-03  1.12264101e+00  2.84705329e-03 
 6.01460644e-03  1.17154052e+00  2.86266780e-03 
 6.04834809e-03  1.03183721e+00  2.87165207e-03 
 6.08379726e-03  9.82709273e-01  2.88111755e-03 
 6.11795823e-03  1.13865576e+00  2.89021422e-03 
 6.14964518e-03  9.85144402e-01  2.89866968e-03 
 6.17665111e-03  8.34358420e-01  2.90586233e-03 
 6.20504556e-03  6.98305439e-01  2.91344210e-03 
 6.22460392e-03  8.89209768e-01  2.91864655e-03 
 6.24821306e-03  9.11584686e-01  2.92495195e-03 
 6.27634901e-03  8.48528327e-01  2.93244945e-03 
 6.30541395e-03  9.06029414e-01  2.94021032e-03 
 6.34329183e-03  8.99628234e-01  2.95030566e-03 
 6.41904761e-03  9.58085181e-01  2.97052660e-03 
 6.49668931e-03  9.93396506e-01  2.99123460e-03 
 6.56485287e-03  9.42124297e-01  3.00943210e-03 
 6.63390380e-03  9.46842529e-01  3.02785062e-03 
 6.73390380e-03  8.95227408e-01  3.05455005e-03 
 6.83390380e-03  8.66213915e-01  3.08123951e-03 
 6.93390380e-03  8.87552379e-01  3.10796203e-03 
 6.96917673e-03  9.47980203e-01  3.11737483e-03 
 6.98522928e-03  8.52720616e-01  3.12578593e-03 
 6.99113798e-03  8.44599401e-01  3.26780947e-03 
 6.99304577e-03  8.41977244e-01  4.19524657e-03 
 6.99373181e-03  8.41034318e-01  4.09995933e-03 
 6.99441166e-03  8.40099899e-01  4.18138128e-03 
 6.99459429e-03  8.39848873e-01  4.19723228e-03 
 6.99464609e-03  8.39777686e-01  4.20131478e-03 
 6.99466919e-03  8.39745934e-01  4.20306083e-03 
 6.99469334e-03  8.39712742e-01  4.20488163e-03 
 6.99471991e-03  8.39676224e-01  4.20680887e-03 
 6.99477305e-03  8.39603186e-01  4.21057533e-03 
 6.99485714e-03  8.39487597e-01  4.21613995e-03 
 6.99499209e-03  8.39302119e-01  4.22423268e-03 
 6.99523515e-03  8.38968044e-01  4.23624972e-03 
 6.99572127e-03  8.38299894e-01  4.25206965e-03 
 6.99669352e-03  8.36963594e-01  4.25654346e-03 
 6.99863801e-03  8.34290993e-01  4.23396585e-03 
 7.00056025e-03  8.29684574e-01  4.22277636e-03 
 7.00338941e-03  8.15876133e-01  4.21277082e-03 
 7.00544129e-03  8.05861437e-01  4.20799679e-03 
 7.00765017e-03  7.95080446e-01  4.20415292e-03 
 7.01206793e-03  7.73518466e-01  4.19873570e-03 
 7.02090345e-03  7.42948612e-01  4.19307194e-03 
 7.02955351e-03  8.20929347e-01  4.19090212e-03 
 7.03767376e-03  8.94133814e-01  4.19029053e-03 
 7.05293783e-03  1.06517925e+00  4.19102761e-03 
 7.06372264e-03  1.08612477e+00  4.19249134e-03 
 7.07304759e-03  9.33390890e-01  4.19404156e-03 
 7.08257358e-03  8.07341137e-01  4.19585184e-03 
 7.09948143e-03  7.27348415e-01  4.19931154e-03 
 7.10826182e-03  8.01141649e-01  4.20123834e-03 
 7.11741556e-03  8.85619751e-01  4.20325832e-03 
 7.12703704e-03  8.81256353e-01  4.20545321e-03 
 7.13679104e-03  8.42148163e-01  4.20767262e-03 
 7.14828380e-03  8.86820889e-01  4.21035330e-03 
 7.16050435e-03  9.67762693e-01  4.21319329e-03 
 7.17501215e-03  9.55154689e-01  4.21662212e-03 
 7.18944376e-03  9.32432990e-01  4.22001157e-03 
 7.20633209e-03  8.48997866e-01  4.22402855e-03 
 7.22431559e-03  7.58971126e-01  4.22828167e-03 
 7.23417366e-03  8.63374958e-01  4.23064226e-03 
 7.24417616e-03  8.78839261e-01  4.23300331e-03 
 7.25177980e-03  7.94647537e-01  4.23482686e-03 
 7.25924844e-03  7.11950653e-01  4.23658611e-03 
 7.26491665e-03  7.51083532e-01  4.23795222e-03 
 7.27088614e-03  8.08699834e-01  4.23935699e-03 
 7.28223043e-03  9.05255827e-01  4.24207515e-03 
 7.29629011e-03  9.59408812e-01  4.24540341e-03 
 7.31099690e-03  9.39317304e-01  4.24892181e-03 
 7.32486764e-03  8.93690780e-01  4.25220826e-03 
 7.34399441e-03  8.87033654e-01  4.25677946e-03 
 7.36082158e-03  1.07598591e+00  4.26077090e-03 
 7.37659723e-03  1.03550716e+00  4.26454565e-03 
 7.39503770e-03  9.10931563e-01  4.26892369e-03 
 7.41397141e-03  9.82466177e-01  4.27345253e-03 
 7.43288162e-03  9.59755838e-01  4.27794065e-03 
 7.46464096e-03  8.70998273e-01  4.28552258e-03 
 7.49399514e-03  9.17193774e-01  4.29249701e-03 
 7.52739615e-03  8.30817421e-01  4.30046931e-03 
 7.58454394e-03  8.77159658e-01  4.31405541e-03 
 7.62818813e-03  9.60271655e-01  4.32445718e-03 
 7.66979508e-03  9.37902115e-01  4.33435313e-03 
 7.69668188e-03  7.69902048e-01  4.34077215e-03 
 7.72312046e-03  7.66923757e-01  4.34704896e-03 
 7.73616103e-03  9.09298681e-01  4.35017517e-03 
 7.74881261e-03  8.64481377e-01  4.35317420e-03 
 7.75874869e-03  7.66693906e-01  4.35555843e-03 
 7.76793272e-03  8.01845242e-01  4.35772758e-03 
 7.77786124e-03  8.61253530e-01  4.36010823e-03 
 7.78760937e-03  8.44084903e-01  4.36241280e-03 
 7.79880297e-03  8.00003968e-01  4.36509373e-03 
 7.81077172e-03  8.51396672e-01  4.36792563e-03 
 7.82201707e-03  9.04076340e-01  4.37062021e-03 
 7.83743135e-03  9.39323388e-01  4.37427090e-03 
 7.85194475e-03  8.84718353e-01  4.37774194e-03 
 7.86660015e-03  8.75272161e-01  4.38121596e-03 
 7.89131157e-03  9.22573710e-01  4.38711561e-03 
 7.91367991e-03  8.85183400e-01  4.39242527e-03 
 7.94992614e-03  8.98682972e-01  4.40107278e-03 
 8.02241860e-03  8.38953214e-01  4.41831735e-03 
 8.11764715e-03  7.87429771e-01  4.44100034e-03 
 8.18044130e-03  9.26360222e-01  4.45593079e-03 
 8.24188597e-03  9.43174285e-01  4.47057505e-03 
 8.29343857e-03  9.43020465e-01  4.48282494e-03 
 8.34998115e-03  9.06835766e-01  4.49630015e-03 
 8.41003580e-03  8.58827498e-01  4.51057058e-03 
 8.47324405e-03  8.97176592e-01  4.52562611e-03 
 8.54187807e-03  9.16585049e-01  4.54194438e-03 
 8.61439752e-03  8.72225061e-01  4.55921411e-03 
 8.69092285e-03  9.10170318e-01  4.57740600e-03 
 8.79092285e-03  8.90016214e-01  4.60121550e-03 
 8.89092285e-03  9.59104942e-01  4.62498503e-03 
 8.99092285e-03  9.35833262e-01  4.64878773e-03 
 9.09092285e-03  8.61449666e-01  4.67255251e-03 
 9.16405133e-03  1.05050545e+00  4.68995702e-03 
 9.23267923e-03  9.54450490e-01  4.70626074e-03 
 9.28082826e-03  9.14427821e-01  4.71772796e-03 
 9.33114706e-03  1.00768475e+00  4.72967503e-03 
 9.38039175e-03  9.62576615e-01  4.74140000e-03 
 9.42616804e-03  9.89928981e-01  4.75226317e-03 
 9.49883146e-03  9.87173263e-01  4.76955068e-03 
 9.59883146e-03  1.03664456e+00  4.79330336e-03 
 9.68547863e-03  9.93892860e-01  4.81391786e-03 
 9.77477071e-03  8.89501490e-01  4.83512594e-03 
 9.86125144e-03  8.75249691e-01  4.85569446e-03 
 9.94734460e-03  8.67666613e-01  4.87613561e-03 
 1.00240929e-02  9.95481874e-01  4.89438375e-03 
 1.00988434e-02  8.84018266e-01  4.91212693e-03 
 1.01694659e-02  9.20697801e-01  4.92891801e-03 
 1.02247875e-02  1.06613451e+00  4.94204369e-03 
 1.02764299e-02  9.73796429e-01  4.95432967e-03 
 1.03295318e-02  9.71258683e-01  4.96691991e-03 
 1.03824696e-02  9.07827325e-01  4.97950474e-03 
 1.04381393e-02  9.37066110e-01  4.99271230e-03 
 1.04880487e-02  1.06798461e+00  5.00458993e-03 
 1.05333246e-02  1.01024476e+00  5.01532593e-03 
 1.05655605e-02  8.82463301e-01  5.02300018e-03 
 1.05968222e-02  1.02311749e+00  5.03040187e-03 
 1.06250010e-02  9.76626577e-01  5.03710664e-03 
 1.06703861e-02  1.01518421e+00  5.04787098e-03 
 1.07136463e-02  9.47869417e-01  5.05816130e-03 
 1.07789450e-02  1.00760846e+00  5.07364572e-03 
 1.08539467e-02  9.95002872e-01  5.09147015e-03 
 1.09539467e-02  1.06903471e+00  5.11519338e-03 
 1.10539467e-02  1.01501362e+00  5.13894822e-03 
 1.11410760e-02  9.33441083e-01  5.15961785e-03 
 1.12063090e-02  8.86042428e-01  5.17511291e-03 
 1.12577248e-02  9.94186224e-01  5.18730048e-03 
 1.13120538e-02  9.79978520e-01  5.20021870e-03 
 1.13585392e-02  9.08497806e-01  5.21123584e-03 
 1.14021903e-02  9.85649061e-01  5.22160221e-03 
 1.14512625e-02  9.65313717e-01  5.23322700e-03 
 1.15257255e-02  1.10374386e+00  5.25091382e-03 
 1.16257255e-02  1.08062135e+00  5.27461909e-03 
 1.17009857e-02  1.06734865e+00  5.29249114e-03 
 1.17814766e-02  1.02434921e+00  5.31156612e-03 
 1.18450321e-02  9.27397098e-01  5.32666189e-03 
 1.18974856e-02  1.14824534e+00  5.33908391e-03 
 1.19447408e-02  1.03634300e+00  5.35030353e-03 
 1.20069087e-02  1.12691286e+00  5.36503306e-03 
 1.20740426e-02  1.12671956e+00  5.38097836e-03 
 1.21116125e-02  9.00904630e-01  5.38986921e-03 
 1.21512101e-02  9.77304178e-01  5.39927421e-03 
 1.21784219e-02  1.05279059e+00  5.40571266e-03 
 1.22076712e-02  1.03838418e+00  5.41266523e-03 
 1.22353007e-02  9.48210455e-01  5.41919441e-03 
 1.22626332e-02  9.74967106e-01  5.42569300e-03 
 1.22917538e-02  1.03574896e+00  5.43258408e-03 
 1.23187024e-02  1.01866207e+00  5.43898698e-03 
 1.23582393e-02  1.05647204e+00  5.44834249e-03 
 1.24180336e-02  1.04968313e+00  5.46253649e-03 
 1.25117479e-02  1.12787605e+00  5.48474188e-03 
 1.26117479e-02  1.10439317e+00  5.50846335e-03 
 1.27117479e-02  1.08960185e+00  5.53213830e-03 
 1.28117479e-02  1.16621940e+00  5.55585267e-03 
 1.29117479e-02  1.11646269e+00  5.57952793e-03 
 1.30117479e-02  1.13524305e+00  5.60323750e-03 
 1.31117479e-02  1.00605970e+00  5.62691018e-03 
 1.32117479e-02  1.13613848e+00  5.65061689e-03 
 1.33033655e-02  1.01007938e+00  5.67229642e-03 
 1.34033655e-02  9.50937123e-01  5.69599906e-03 
 1.34699956e-02  1.09663001e+00  5.71176144e-03 
 1.35317292e-02  1.12381031e+00  5.72639650e-03 
 1.35749541e-02  1.04027590e+00  5.73662043e-03 
 1.36162439e-02  1.05250676e+00  5.74641353e-03 
 1.36679522e-02  9.49958279e-01  5.75864029e-03 
 1.37094238e-02  1.09691094e+00  5.76847908e-03 
 1.37472100e-02  1.04747636e+00  5.77740692e-03 
 1.38119577e-02  1.13837611e+00  5.79275462e-03 
 1.38673495e-02  1.10842245e+00  5.80585388e-03 
 1.39669360e-02  1.17191153e+00  5.82944070e-03 
 1.40669360e-02  1.07775102e+00  5.85309270e-03 
 1.41669360e-02  1.02879437e+00  5.87678028e-03 
 1.42487639e-02  1.05714570e+00  5.89612287e-03 
 1.43388844e-02  1.00006378e+00  5.91746784e-03 
 1.44388844e-02  1.05494719e+00  5.94111643e-03 
 1.45388844e-02  1.07674004e+00  5.96478729e-03 
 1.46388844e-02  1.05606365e+00  5.98843251e-03 
 1.47388844e-02  8.37281893e-01  6.01210609e-03 
 1.48064685e-02  1.13740608e+00  6.02807476e-03 
 1.48703544e-02  1.12689617e+00  6.04320163e-03 
 1.49089296e-02  1.16895638e+00  6.05230446e-03 
 1.49492834e-02  9.77258757e-01  6.06186471e-03 
 1.49871758e-02  1.09892171e+00  6.07081218e-03 
 1.50222913e-02  9.56441214e-01  6.07913532e-03 
 1.50703818e-02  1.16059412e+00  6.09048924e-03 
 1.51147453e-02  1.05557172e+00  6.10099073e-03 
 1.51617439e-02  1.12102240e+00  6.11208974e-03 
 1.52322933e-02  1.08155965e+00  6.12879180e-03 
 1.53179162e-02  1.05515268e+00  6.14901167e-03 
 1.54059568e-02  1.15824406e+00  6.16984715e-03 
 1.54906731e-02  1.03351585e+00  6.18986109e-03 
 1.55906731e-02  1.10805558e+00  6.21350756e-03 
 1.56906731e-02  1.11336853e+00  6.23712076e-03 
 1.57906731e-02  1.10808988e+00  6.26076780e-03 
 1.58906731e-02  1.07740470e+00  6.28438230e-03 
 1.59906731e-02  1.02875915e+00  6.30802508e-03 
 1.60906731e-02  1.07065338e+00  6.33163147e-03 
 1.61906731e-02  1.05825585e+00  6.35526870e-03 
 1.62906731e-02  1.09427330e+00  6.37887284e-03 
 1.63906731e-02  1.04389811e+00  6.40250740e-03 
 1.64906731e-02  1.09608890e+00  6.42609838e-03 
 1.65906731e-02  9.99022590e-01  6.44973296e-03 
 1.66906731e-02  1.09298718e+00  6.47333065e-03 
 1.67906731e-02  1.04536193e+00  6.49695117e-03 
 1.68906731e-02  1.14294857e+00  6.52053515e-03 
 1.69906731e-02  1.15539748e+00  6.54415481e-03 
 1.70906731e-02  1.14902138e+00  6.56774413e-03 
 1.71906731e-02  1.06013579e+00  6.59136420e-03 
 1.72771059e-02  1.17726796e+00  6.61173463e-03 
 1.73702201e-02  1.04193494e+00  6.63373046e-03 
 1.74702201e-02  1.00425991e+00  6.65731108e-03 
 1.75613760e-02  8.95965880e-01  6.67882702e-03 
 1.76503395e-02  1.02292662e+00  6.69979989e-03 
 1.77448189e-02  1.02379998e+00  6.72209518e-03 
 1.78448189e-02  1.15186048e+00  6.74566735e-03 
 1.79448189e-02  1.63890194e+00  6.76927418e-03 
 1.79729095e-02  1.76277643e+00  6.77587971e-03 
 1.79846877e-02  1.81072184e+00  6.77867352e-03 
 1.79917355e-02  1.77991281e+00  6.78031828e-03 
 1.79974746e-02  1.75482470e+00  6.78168880e-03 
 1.80036836e-02  1.74580215e+00  6.78313563e-03 
 1.80161017e-02  1.75260229e+00  6.78608024e-03 
 1.80409378e-02  1.69288952e+00  6.79192299e-03 
 1.80753200e-02  1.57705858e+00  6.80004481e-03 
 1.81374306e-02  1.19518277e+00  6.81466982e-03 
 1.82067020e-02  9.96273691e-01  6.83101726e-03 
 1.82734944e-02  9.63563341e-01  6.84674230e-03 
