 time            v(vin)          v(vdata)       
 1.00000000e-06  8.86848650e-01  2.39726834e-01 
 1.00320713e-06  8.86881188e-01  2.39836652e-01 
 1.00962139e-06  8.86946265e-01  2.39920816e-01 
 1.02244990e-06  8.87076419e-01  2.39981675e-01 
 1.04086394e-06  8.87263241e-01  2.40089593e-01 
 1.07769202e-06  8.87636886e-01  2.40206147e-01 
 1.12704290e-06  8.88137583e-01  2.40345336e-01 
 1.19625853e-06  8.88839820e-01  2.40457866e-01 
 1.30167273e-06  8.89909316e-01  2.40608283e-01 
 1.51250112e-06  8.92048307e-01  2.40779580e-01 
 1.71184472e-06  8.94070777e-01  2.40908009e-01 
 2.01933255e-06  8.97190441e-01  2.41024839e-01 
 2.37382606e-06  9.00787008e-01  2.41146167e-01 
 2.94413246e-06  9.06573137e-01  2.41264535e-01 
 3.58588083e-06  9.13084092e-01  2.41383660e-01 
 4.56358314e-06  9.23003517e-01  2.41492416e-01 
 5.68525508e-06  9.34383608e-01  2.41606426e-01 
 7.35853481e-06  9.51360119e-01  2.41706593e-01 
 9.29129447e-06  9.70969222e-01  2.41812813e-01 
 1.20982975e-05  9.99448092e-01  2.41900459e-01 
 1.53685960e-05  1.03262740e+00  2.41996036e-01 
 1.99211854e-05  1.07881637e+00  2.42067802e-01 
 2.52967320e-05  1.10098090e+00  2.42149647e-01 
 3.27860898e-05  1.13118997e+00  2.42206362e-01 
 4.13266129e-05  1.15144599e+00  2.42274209e-01 
 5.32118375e-05  1.07222978e+00  2.42324533e-01 
 6.65024697e-05  1.08837842e+00  2.42410414e-01 
 7.99904315e-05  1.21572366e+00  2.42518502e-01 
 9.62504949e-05  1.18118095e+00  2.42870725e-01 
 1.00000000e-04  1.17319000e+00  2.42987450e-01 
 1.01650151e-04  1.15516004e+00  2.43063160e-01 
 1.04950452e-04  1.11910013e+00  2.43217422e-01 
 1.11551054e-04  1.04698030e+00  2.43627540e-01 
 1.24752259e-04  9.79052878e-01  2.45026597e-01 
 1.47006852e-04  1.06637482e+00  2.50704007e-01 
 1.75587818e-04  1.00046042e+00  2.70914692e-01 
 2.03123646e-04  1.09957892e+00  3.10269598e-01 
 2.46400876e-04  1.07914921e+00  3.97892636e-01 
 2.95994385e-04  1.15704946e+00  5.11350172e-01 
 3.47681585e-04  9.32427966e-01  6.33476565e-01 
 4.39700408e-04  1.09214863e+00  8.54266512e-01 
 5.22921107e-04  1.17989441e+00  1.05506234e+00 
 6.22921107e-04  1.12224603e+00  1.29527326e+00 
 7.22921107e-04  1.10775376e+00  1.51944908e+00 
 8.22921107e-04  9.51985770e-01  1.64490938e+00 
 9.22921107e-04  1.03766917e+00  1.68260105e+00 
 1.02292111e-03  9.84607061e-01  1.74442099e+00 
 1.12292111e-03  1.09277729e+00  1.83852287e+00 
 1.22292111e-03  1.02981130e+00  1.93022825e+00 
 1.32292111e-03  1.07516674e+00  1.99714260e+00 
 1.42292111e-03  1.06629425e+00  2.04764892e+00 
 1.52292111e-03  9.06732391e-01  2.05405142e+00 
 1.61198548e-03  1.05665260e+00  2.04585115e+00 
 1.70540613e-03  9.23453626e-01  2.07324947e+00 
 1.80540613e-03  1.01375448e+00  2.09445735e+00 
 1.90540613e-03  8.92884413e-01  2.09967007e+00 
 2.00540613e-03  9.64126897e-01  2.09994767e+00 
 2.10540613e-03  1.15027088e+00  2.15728105e+00 
 2.19620772e-03  1.06529268e+00  2.23443126e+00 
 2.25783728e-03  1.05134706e+00  2.24025461e+00 
 2.31351974e-03  1.05584210e+00  2.22516937e+00 
 2.36664610e-03  9.94863018e-01  2.20801011e+00 
 2.42046992e-03  1.02662866e+00  2.18761954e+00 
 2.49001553e-03  1.12403646e+00  2.19347485e+00 
 2.55885061e-03  9.34570987e-01  2.20712094e+00 
 2.63040957e-03  9.99738903e-01  2.17920682e+00 
 2.68465436e-03  9.85722453e-01  2.15702089e+00 
 2.76304148e-03  8.68516882e-01  2.12903049e+00 
 2.79137351e-03  9.80735855e-01  2.11660483e+00 
 2.81010355e-03  9.82768111e-01  2.11594862e+00 
 2.83336169e-03  1.09290005e+00  2.12769730e+00 
 2.84497441e-03  1.10877169e+00  2.13797727e+00 
 2.85919898e-03  1.07157085e+00  2.15318861e+00 
 2.87917350e-03  1.10258960e+00  2.17536923e+00 
 2.90376688e-03  1.03478408e+00  2.19857907e+00 
 2.92696047e-03  1.08887541e+00  2.21327407e+00 
 2.97334766e-03  1.08313162e+00  2.23343758e+00 
 3.01665422e-03  1.04250765e+00  2.24253991e+00 
 3.07536684e-03  1.01956387e+00  2.23303284e+00 
 3.13369316e-03  8.76709300e-01  2.19904363e+00 
 3.19470580e-03  9.12538107e-01  2.15047102e+00 
 3.26417734e-03  1.03724850e+00  2.13167765e+00 
 3.32896138e-03  9.95820202e-01  2.15862045e+00 
 3.38052866e-03  9.40237214e-01  2.17069251e+00 
 3.43313512e-03  1.01365526e+00  2.16706271e+00 
 3.48792062e-03  9.69804578e-01  2.16757479e+00 
 3.54910916e-03  9.31162199e-01  2.16080738e+00 
 3.63963014e-03  9.33971076e-01  2.13533666e+00 
 3.71896264e-03  1.00330573e+00  2.13736128e+00 
 3.79779244e-03  8.35534020e-01  2.14262624e+00 
 3.87369786e-03  1.03964127e+00  2.14055781e+00 
 3.95105125e-03  9.51857445e-01  2.16489788e+00 
 4.01266413e-03  9.62798647e-01  2.17641767e+00 
 4.09345711e-03  8.93579952e-01  2.15644588e+00 
 4.17125668e-03  9.05356906e-01  2.12869419e+00 
 4.24812727e-03  9.05601790e-01  2.11531453e+00 
 4.34812727e-03  1.11913671e+00  2.16155472e+00 
 4.44079427e-03  1.00511786e+00  2.22619878e+00 
 4.47719655e-03  7.41631261e-01  2.22884064e+00 
 4.50757036e-03  1.03440154e+00  2.21745102e+00 
 4.52786162e-03  1.09450012e+00  2.21286191e+00 
 4.54720135e-03  9.43990400e-01  2.21311843e+00 
 4.56583524e-03  9.19530323e-01  2.21087663e+00 
 4.58499092e-03  8.43193600e-01  2.20275086e+00 
 4.60898397e-03  8.77379020e-01  2.18656459e+00 
 4.63376767e-03  9.67482473e-01  2.16894421e+00 
 4.65953142e-03  8.70948381e-01  2.15465367e+00 
 4.68475967e-03  9.82377715e-01  2.14477914e+00 
 4.72070287e-03  8.76729186e-01  2.13698769e+00 
 4.75364278e-03  8.96466803e-01  2.12957874e+00 
 4.79151450e-03  9.96753915e-01  2.12526349e+00 
 4.82595375e-03  9.87190233e-01  2.13516842e+00 
 4.86496444e-03  1.05857019e+00  2.15655914e+00 
 4.90363791e-03  1.01715338e+00  2.17863713e+00 
 4.92953265e-03  8.51103630e-01  2.18503611e+00 
 4.95465271e-03  8.58157455e-01  2.17790679e+00 
 4.97188620e-03  8.40216880e-01  2.16682383e+00 
 4.98331239e-03  8.38019571e-01  2.15787824e+00 
 4.98745776e-03  8.56709786e-01  2.15442563e+00 
 4.98936196e-03  8.65295286e-01  2.15282062e+00 
 4.99007925e-03  8.68529312e-01  2.15221518e+00 
 4.99082574e-03  8.71895003e-01  2.15158572e+00 
 4.99140965e-03  8.74527695e-01  2.15109343e+00 
 4.99202836e-03  8.77317280e-01  2.15057290e+00 
 4.99326579e-03  8.82896450e-01  2.14953464e+00 
 4.99574063e-03  8.94054790e-01  2.14747974e+00 
 4.99878097e-03  9.07762782e-01  2.14501346e+00 
 5.00142424e-03  9.26640049e-01  2.14294602e+00 
 5.00433870e-03  9.54022153e-01  2.14078838e+00 
 5.00675045e-03  9.76681127e-01  2.13913364e+00 
 5.00986878e-03  1.00597861e+00  2.13722202e+00 
 5.01610543e-03  1.06457357e+00  2.13436684e+00 
 5.02412719e-03  1.05890115e+00  2.13277818e+00 
 5.03354844e-03  9.62426579e-01  2.13315323e+00 
 5.05239095e-03  8.70281528e-01  2.13393172e+00 
 5.07384713e-03  8.39953612e-01  2.12915460e+00 
 5.09479961e-03  8.27335983e-01  2.11864239e+00 
 5.11265784e-03  8.77568311e-01  2.10805034e+00 
 5.13118889e-03  9.09709684e-01  2.09938687e+00 
 5.15469740e-03  8.93325356e-01  2.09401682e+00 
 5.17635851e-03  8.99469158e-01  2.09266657e+00 
 5.21968072e-03  9.38842586e-01  2.09690997e+00 
 5.26243565e-03  1.06062937e+00  2.11734939e+00 
 5.29518329e-03  9.06834452e-01  2.13827434e+00 
 5.32976895e-03  8.64063453e-01  2.14290210e+00 
 5.36446646e-03  8.78968581e-01  2.12878024e+00 
 5.39261040e-03  9.95569425e-01  2.11854284e+00 
 5.41929939e-03  9.89688617e-01  2.12024068e+00 
 5.45245805e-03  9.71595511e-01  2.13091707e+00 
 5.48954691e-03  8.64036264e-01  2.13420057e+00 
 5.52355500e-03  9.30285960e-01  2.12518161e+00 
 5.55905817e-03  9.20241714e-01  2.11441463e+00 
 5.60605512e-03  9.74148540e-01  2.10998654e+00 
 5.67103366e-03  1.05105370e+00  2.12999369e+00 
 5.73134406e-03  9.63338311e-01  2.15144516e+00 
 5.79248835e-03  8.99192105e-01  2.13694443e+00 
 5.85029850e-03  9.72512865e-01  2.10721544e+00 
 5.90416339e-03  1.07905337e+00  2.10960536e+00 
 5.95606620e-03  1.12264101e+00  2.14488207e+00 
 6.01460644e-03  1.17154052e+00  2.19146534e+00 
 6.04834809e-03  1.03183721e+00  2.20684315e+00 
 6.08379726e-03  9.82709273e-01  2.20085129e+00 
 6.11795823e-03  1.13865576e+00  2.18363467e+00 
 6.14964518e-03  9.85144402e-01  2.17030005e+00 
 6.17665111e-03  8.34358420e-01  2.15465332e+00 
 6.20504556e-03  6.98305439e-01  2.12799668e+00 
 6.22460392e-03  8.89209768e-01  2.10600653e+00 
 6.24821306e-03  9.11584686e-01  2.08011846e+00 
 6.27634901e-03  8.48528327e-01  2.05310678e+00 
 6.30541395e-03  9.06029414e-01  2.03080031e+00 
 6.34329183e-03  8.99628234e-01  2.01586501e+00 
 6.41904761e-03  9.58085181e-01  2.02734626e+00 
 6.49668931e-03  9.93396506e-01  2.06681317e+00 
 6.56485287e-03  9.42124297e-01  2.08875110e+00 
 6.63390380e-03  9.46842529e-01  2.08310955e+00 
 6.73390380e-03  8.95227408e-01  2.06020374e+00 
 6.83390380e-03  8.66213915e-01  2.03747009e+00 
 6.93390380e-03  8.87552379e-01  2.03397742e+00 
 6.96917673e-03  9.47980203e-01  2.04477416e+00 
 6.98522928e-03  8.52720616e-01  2.05148652e+00 
 6.99113798e-03  8.44599401e-01  2.05339609e+00 
 6.99304577e-03  8.41977244e-01  2.05386069e+00 
 6.99373181e-03  8.41034318e-01  2.05401021e+00 
 6.99441166e-03  8.40099899e-01  2.05414953e+00 
 6.99459429e-03  8.39848873e-01  2.05418541e+00 
 6.99464609e-03  8.39777686e-01  2.05419551e+00 
 6.99466919e-03  8.39745934e-01  2.05419996e+00 
 6.99469334e-03  8.39712742e-01  2.05420464e+00 
 6.99471991e-03  8.39676224e-01  2.05420975e+00 
 6.99477305e-03  8.39603186e-01  2.05421997e+00 
 6.99485714e-03  8.39487597e-01  2.05423600e+00 
 6.99499209e-03  8.39302119e-01  2.05426147e+00 
 6.99523515e-03  8.38968044e-01  2.05430644e+00 
 6.99572127e-03  8.38299894e-01  2.05439309e+00 
 6.99669352e-03  8.36963594e-01  2.05455314e+00 
 6.99863801e-03  8.34290993e-01  2.05482134e+00 
 7.00056025e-03  8.29684574e-01  2.05501948e+00 
 7.00338941e-03  8.15876133e-01  2.05518882e+00 
 7.00544129e-03  8.05861437e-01  2.05521707e+00 
 7.00765017e-03  7.95080446e-01  2.05515384e+00 
 7.01206793e-03  7.73518466e-01  2.05472508e+00 
 7.02090345e-03  7.42948612e-01  2.05266750e+00 
 7.02955351e-03  8.20929347e-01  2.04951310e+00 
 7.03767376e-03  8.94133814e-01  2.04660340e+00 
 7.05293783e-03  1.06517925e+00  2.04567150e+00 
 7.06372264e-03  1.08612477e+00  2.04987311e+00 
 7.07304759e-03  9.33390890e-01  2.05601761e+00 
 7.08257358e-03  8.07341137e-01  2.06211136e+00 
 7.09948143e-03  7.27348415e-01  2.06681674e+00 
 7.10826182e-03  8.01141649e-01  2.06597862e+00 
 7.11741556e-03  8.85619751e-01  2.06416301e+00 
 7.12703704e-03  8.81256353e-01  2.06279130e+00 
 7.13679104e-03  8.42148163e-01  2.06211349e+00 
 7.14828380e-03  8.86820889e-01  2.06166551e+00 
 7.16050435e-03  9.67762693e-01  2.06281125e+00 
 7.17501215e-03  9.55154689e-01  2.06799608e+00 
 7.18944376e-03  9.32432990e-01  2.07581301e+00 
 7.20633209e-03  8.48997866e-01  2.08375313e+00 
 7.22431559e-03  7.58971126e-01  2.08616710e+00 
 7.23417366e-03  8.63374958e-01  2.08462600e+00 
 7.24417616e-03  8.78839261e-01  2.08262834e+00 
 7.25177980e-03  7.94647537e-01  2.08115535e+00 
 7.25924844e-03  7.11950653e-01  2.07908459e+00 
 7.26491665e-03  7.51083532e-01  2.07682479e+00 
 7.27088614e-03  8.08699834e-01  2.07399451e+00 
 7.28223043e-03  9.05255827e-01  2.06919409e+00 
 7.29629011e-03  9.59408812e-01  2.06725847e+00 
 7.31099690e-03  9.39317304e-01  2.07083142e+00 
 7.32486764e-03  8.93690780e-01  2.07687582e+00 
 7.34399441e-03  8.87033654e-01  2.08429951e+00 
 7.36082158e-03  1.07598591e+00  2.09138161e+00 
 7.37659723e-03  1.03550716e+00  2.10239382e+00 
 7.39503770e-03  9.10931563e-01  2.11726966e+00 
 7.41397141e-03  9.82466177e-01  2.12872603e+00 
 7.43288162e-03  9.59755838e-01  2.13670382e+00 
 7.46464096e-03  8.70998273e-01  2.14130964e+00 
 7.49399514e-03  9.17193774e-01  2.13500302e+00 
 7.52739615e-03  8.30817421e-01  2.12100752e+00 
 7.58454394e-03  8.77159658e-01  2.09275365e+00 
 7.62818813e-03  9.60271655e-01  2.08545938e+00 
 7.66979508e-03  9.37902115e-01  2.09794312e+00 
 7.69668188e-03  7.69902048e-01  2.10347805e+00 
 7.72312046e-03  7.66923757e-01  2.09567068e+00 
 7.73616103e-03  9.09298681e-01  2.08861567e+00 
 7.74881261e-03  8.64481377e-01  2.08335522e+00 
 7.75874869e-03  7.66693906e-01  2.07999579e+00 
 7.76793272e-03  8.01845242e-01  2.07625142e+00 
 7.77786124e-03  8.61253530e-01  2.07193111e+00 
 7.78760937e-03  8.44084903e-01  2.06840795e+00 
 7.79880297e-03  8.00003968e-01  2.06500898e+00 
 7.81077172e-03  8.51396672e-01  2.06162567e+00 
 7.82201707e-03  9.04076340e-01  2.05974423e+00 
 7.83743135e-03  9.39323388e-01  2.06146574e+00 
 7.85194475e-03  8.84718353e-01  2.06666206e+00 
 7.86660015e-03  8.75272161e-01  2.07229632e+00 
 7.89131157e-03  9.22573710e-01  2.08076099e+00 
 7.91367991e-03  8.85183400e-01  2.08807392e+00 
 7.94992614e-03  8.98682972e-01  2.09586186e+00 
 8.02241860e-03  8.38953214e-01  2.09261849e+00 
 8.11764715e-03  7.87429771e-01  2.06037001e+00 
 8.18044130e-03  9.26360222e-01  2.05538731e+00 
 8.24188597e-03  9.43174285e-01  2.09149004e+00 
 8.29343857e-03  9.43020465e-01  2.12585392e+00 
 8.34998115e-03  9.06835766e-01  2.13806655e+00 
 8.41003580e-03  8.58827498e-01  2.12265665e+00 
 8.47324405e-03  8.97176592e-01  2.09781571e+00 
 8.54187807e-03  9.16585049e-01  2.09096306e+00 
 8.61439752e-03  8.72225061e-01  2.09224710e+00 
 8.69092285e-03  9.10170318e-01  2.08589756e+00 
 8.79092285e-03  8.90016214e-01  2.08390892e+00 
 8.89092285e-03  9.59104942e-01  2.09453527e+00 
 8.99092285e-03  9.35833262e-01  2.10817294e+00 
 9.09092285e-03  8.61449666e-01  2.08865479e+00 
 9.16405133e-03  1.05050545e+00  2.08267899e+00 
 9.23267923e-03  9.54450490e-01  2.11160764e+00 
 9.28082826e-03  9.14427821e-01  2.11687603e+00 
 9.33114706e-03  1.00768475e+00  2.10650843e+00 
 9.38039175e-03  9.62576615e-01  2.10543165e+00 
 9.42616804e-03  9.89928981e-01  2.10604890e+00 
 9.49883146e-03  9.87173263e-01  2.10317018e+00 
 9.59883146e-03  1.03664456e+00  2.10593208e+00 
 9.68547863e-03  9.93892860e-01  2.10501455e+00 
 9.77477071e-03  8.89501490e-01  2.07098164e+00 
 9.86125144e-03  8.75249691e-01  2.01890763e+00 
 9.94734460e-03  8.67666613e-01  1.99636633e+00 
 1.00240929e-02  9.95481874e-01  2.02421476e+00 
 1.00988434e-02  8.84018266e-01  2.06362689e+00 
 1.01694659e-02  9.20697801e-01  2.06862941e+00 
 1.02247875e-02  1.06613451e+00  2.07913409e+00 
 1.02764299e-02  9.73796429e-01  2.10921932e+00 
 1.03295318e-02  9.71258683e-01  2.12084978e+00 
 1.03824696e-02  9.07827325e-01  2.10558300e+00 
 1.04381393e-02  9.37066110e-01  2.08197420e+00 
 1.04880487e-02  1.06798461e+00  2.08155793e+00 
 1.05333246e-02  1.01024476e+00  2.10350671e+00 
 1.05655605e-02  8.82463301e-01  2.11165999e+00 
 1.05968222e-02  1.02311749e+00  2.10733800e+00 
 1.06250010e-02  9.76626577e-01  2.10401623e+00 
 1.06703861e-02  1.01518421e+00  2.10292283e+00 
 1.07136463e-02  9.47869417e-01  2.09953868e+00 
 1.07789450e-02  1.00760846e+00  2.08989559e+00 
 1.08539467e-02  9.95002872e-01  2.08770204e+00 
 1.09539467e-02  1.06903471e+00  2.10253707e+00 
 1.10539467e-02  1.01501362e+00  2.11011546e+00 
 1.11410760e-02  9.33441083e-01  2.08049809e+00 
 1.12063090e-02  8.86042428e-01  2.03779506e+00 
 1.12577248e-02  9.94186224e-01  2.01965153e+00 
 1.13120538e-02  9.79978520e-01  2.03310906e+00 
 1.13585392e-02  9.08497806e-01  2.04651607e+00 
 1.14021903e-02  9.85649061e-01  2.04814891e+00 
 1.14512625e-02  9.65313717e-01  2.05500130e+00 
 1.15257255e-02  1.10374386e+00  2.08796854e+00 
 1.16257255e-02  1.08062135e+00  2.14297346e+00 
 1.17009857e-02  1.06734865e+00  2.15009382e+00 
 1.17814766e-02  1.02434921e+00  2.11929265e+00 
 1.18450321e-02  9.27397098e-01  2.08113076e+00 
 1.18974856e-02  1.14824534e+00  2.06188064e+00 
 1.19447408e-02  1.03634300e+00  2.07329951e+00 
 1.20069087e-02  1.12691286e+00  2.09699556e+00 
 1.20740426e-02  1.12671956e+00  2.11821895e+00 
 1.21116125e-02  9.00904630e-01  2.11972099e+00 
 1.21512101e-02  9.77304178e-01  2.09859009e+00 
 1.21784219e-02  1.05279059e+00  2.07973730e+00 
 1.22076712e-02  1.03838418e+00  2.06787290e+00 
 1.22353007e-02  9.48210455e-01  2.06051469e+00 
 1.22626332e-02  9.74967106e-01  2.04995145e+00 
 1.22917538e-02  1.03574896e+00  2.04099924e+00 
 1.23187024e-02  1.01866207e+00  2.04062176e+00 
 1.23582393e-02  1.05647204e+00  2.04904177e+00 
 1.24180336e-02  1.04968313e+00  2.06733756e+00 
 1.25117479e-02  1.12787605e+00  2.09710109e+00 
 1.26117479e-02  1.10439317e+00  2.11831253e+00 
 1.27117479e-02  1.08960185e+00  2.10643676e+00 
 1.28117479e-02  1.16621940e+00  2.09610959e+00 
 1.29117479e-02  1.11646269e+00  2.10361020e+00 
 1.30117479e-02  1.13524305e+00  2.09087969e+00 
 1.31117479e-02  1.00605970e+00  2.05382374e+00 
 1.32117479e-02  1.13613848e+00  2.03302357e+00 
 1.33033655e-02  1.01007938e+00  2.04185488e+00 
 1.34033655e-02  9.50937123e-01  2.01631568e+00 
 1.34699956e-02  1.09663001e+00  2.00571768e+00 
 1.35317292e-02  1.12381031e+00  2.04593962e+00 
 1.35749541e-02  1.04027590e+00  2.07534841e+00 
 1.36162439e-02  1.05250676e+00  2.08094419e+00 
 1.36679522e-02  9.49958279e-01  2.06549630e+00 
 1.37094238e-02  1.09691094e+00  2.05231215e+00 
 1.37472100e-02  1.04747636e+00  2.05505115e+00 
 1.38119577e-02  1.13837611e+00  2.08008777e+00 
 1.38673495e-02  1.10842245e+00  2.10443394e+00 
 1.39669360e-02  1.17191153e+00  2.12974839e+00 
 1.40669360e-02  1.07775102e+00  2.12118582e+00 
 1.41669360e-02  1.02879437e+00  2.07496214e+00 
 1.42487639e-02  1.05714570e+00  2.04256057e+00 
 1.43388844e-02  1.00006378e+00  2.03724473e+00 
 1.44388844e-02  1.05494719e+00  2.04417324e+00 
 1.45388844e-02  1.07674004e+00  2.07132988e+00 
 1.46388844e-02  1.05606365e+00  2.09059962e+00 
 1.47388844e-02  8.37281893e-01  2.04904249e+00 
 1.48064685e-02  1.13740608e+00  2.02171425e+00 
 1.48703544e-02  1.12689617e+00  2.05969490e+00 
 1.49089296e-02  1.16895638e+00  2.10211493e+00 
 1.49492834e-02  9.77258757e-01  2.12938851e+00 
 1.49871758e-02  1.09892171e+00  2.13172544e+00 
 1.50222913e-02  9.56441214e-01  2.12104337e+00 
 1.50703818e-02  1.16059412e+00  2.10808527e+00 
 1.51147453e-02  1.05557172e+00  2.11016834e+00 
 1.51617439e-02  1.12102240e+00  2.11591020e+00 
 1.52322933e-02  1.08155965e+00  2.11662188e+00 
 1.53179162e-02  1.05515268e+00  2.10121860e+00 
 1.54059568e-02  1.15824406e+00  2.09544206e+00 
 1.54906731e-02  1.03351585e+00  2.10371844e+00 
 1.55906731e-02  1.10805558e+00  2.08910197e+00 
 1.56906731e-02  1.11336853e+00  2.08966248e+00 
 1.57906731e-02  1.10808988e+00  2.09832893e+00 
 1.58906731e-02  1.07740470e+00  2.08233473e+00 
 1.59906731e-02  1.02875915e+00  2.05482109e+00 
 1.60906731e-02  1.07065338e+00  2.04239603e+00 
 1.61906731e-02  1.05825585e+00  2.05717658e+00 
 1.62906731e-02  1.09427330e+00  2.07422953e+00 
 1.63906731e-02  1.04389811e+00  2.07712787e+00 
 1.64906731e-02  1.09608890e+00  2.07442965e+00 
 1.65906731e-02  9.99022590e-01  2.06732250e+00 
 1.66906731e-02  1.09298718e+00  2.06176058e+00 
 1.67906731e-02  1.04536193e+00  2.07535035e+00 
 1.68906731e-02  1.14294857e+00  2.09618326e+00 
 1.69906731e-02  1.15539748e+00  2.12400758e+00 
 1.70906731e-02  1.14902138e+00  2.13384916e+00 
 1.71906731e-02  1.06013579e+00  2.09880018e+00 
 1.72771059e-02  1.17726796e+00  2.07695718e+00 
 1.73702201e-02  1.04193494e+00  2.07755016e+00 
 1.74702201e-02  1.00425991e+00  2.04325594e+00 
 1.75613760e-02  8.95965880e-01  1.98839477e+00 
 1.76503395e-02  1.02292662e+00  1.97797439e+00 
 1.77448189e-02  1.02379998e+00  2.03020763e+00 
 1.78448189e-02  1.15186048e+00  2.10260512e+00 
 1.79448189e-02  1.63890194e+00  2.21324998e+00 
 1.79729095e-02  1.76277643e+00  2.20074318e+00 
 1.79846877e-02  1.81072184e+00  2.22599780e+00 
 1.79917355e-02  1.77991281e+00  2.24131536e+00 
 1.79974746e-02  1.75482470e+00  2.25383915e+00 
 1.80036836e-02  1.74580215e+00  2.26749144e+00 
 1.80161017e-02  1.75260229e+00  2.29493411e+00 
 1.80409378e-02  1.69288952e+00  2.35022521e+00 
 1.80753200e-02  1.57705858e+00  2.42452475e+00 
 1.81374306e-02  1.19518277e+00  2.49327007e+00 
 1.82067020e-02  9.96273691e-01  2.45090914e+00 
 1.82734944e-02  9.63563341e-01  2.35394532e+00 
